
T23E0 000:067 SEGGER J-Link V4.68a Log File (0001ms, 0066ms total)
T23E0 000:067 DLL Compiled: Apr 12 2013 13:26:50 (0001ms, 0066ms total)
T23E0 000:067 Logging started @ 2016-04-14 14:09 (0001ms, 0066ms total)
T23E0 000:068 JLINK_SetWarnOutHandler(...) (0000ms, 0066ms total)
T23E0 000:068 JLINK_OpenEx(...)
Firmware: J-Link ARM V8 compiled Jul 17 2014 12:31:18
Hardware: V8.00
S/N: 20060125
Feature(s): RDI,FlashDL,FlashBP,JFlash,GDBFULL  returns O.K. (0026ms, 0092ms total)
T23E0 000:094 JLINK_SetErrorOutHandler(...) (0000ms, 0092ms total)
T23E0 000:094 JLINK_ExecCommand("ProjectFile = "E:\04 欧乐科技\20151113 超微量分光光度计\软件程序\KOSPE-CTRL-V2.0 20160411\JLinkSettings.ini"", ...)  returns 0x00 (0000ms, 0092ms total)
T23E0 000:098 JLINK_ExecCommand("Device = STM32F103VC", ...)
                JLINK_AddMirrorAreaEx(Addr = 0x00000000, Size = 0x00000000) (0000ms, 0000ms total)
              Device "STM32F103VC" selected (256 KB flash, 48 KB RAM).  returns 0x00 (0006ms, 0098ms total)
T23E0 000:104 JLINK_ExecCommand("DisableConnectionTimeout", ...)  returns 0x00 (0000ms, 0098ms total)
T23E0 000:104 JLINK_GetHardwareVersion()  returns 0x13880 (0000ms, 0098ms total)
T23E0 000:104 JLINK_GetDLLVersion()  returns 46801 (0000ms, 0098ms total)
T23E0 000:104 JLINK_GetFirmwareString(...) (0000ms, 0098ms total)
T23E0 000:115 JLINK_GetDLLVersion()  returns 46801 (0000ms, 0098ms total)
T23E0 000:115 JLINK_GetCompileDateTime() (0000ms, 0098ms total)
T23E0 000:118 JLINK_GetFirmwareString(...) (0000ms, 0098ms total)
T23E0 000:120 JLINK_GetHardwareVersion()  returns 0x13880 (0000ms, 0098ms total)
T23E0 000:127 JLINK_TIF_Select(JLINKARM_TIF_SWD)  returns 0x00 (0005ms, 0103ms total)
T23E0 000:132 JLINK_SetSpeed(2000) (0001ms, 0104ms total)
T23E0 000:133 JLINK_GetId() >0x108 TIF>Found SWD-DP with ID 0x1BA01477 >0x0D TIF> >0x28 TIF> >0x0D TIF> >0x28 TIF> >0x0D TIF> >0x21 TIF> >0x0D TIF> >0x28 TIF> >0x0D TIF> >0x28 TIF> >0x0D TIF> >0x28 TIF> >0x0D TIF> >0x21 TIF> >0x0D TIF> >0x21 TIF> >0x0D TIF> >0x28 TIF> >0x0D TIF> >0x21 TIF> >0x0D TIF> >0x21 TIF> >0x0D TIF> >0x28 TIF> >0x0D TIF> >0x28 TIF> >0x108 TIF>Found SWD-DP with ID 0x1BA01477 >0x0D TIF> >0x21 TIF> >0x0D TIF> >0x28 TIF> >0x0D TIF> >0x28 TIF> >0x0D TIF> >0x21 TIF> >0x0D TIF> >0x21 TIF>
 >0x0D TIF> >0x28 TIF> >0x0D TIF> >0x21 TIF> >0x0D TIF> >0x21 TIF> >0x0D TIF> >0x21 TIF> >0x0D TIF> >0x21 TIF> >0x0D TIF> >0x21 TIF> >0x0D TIF> >0x28 TIF> >0x0D TIF> >0x28 TIF> >0x0D TIF> >0x21 TIF> >0x0D TIF> >0x21 TIF> >0x0D TIF> >0x28 TIF> >0x0D TIF> >0x21 TIF> >0x0D TIF> >0x21 TIF> >0x0D TIF> >0x28 TIF> >0x0D TIF> >0x28 TIF> >0x0D TIF> >0x28 TIF> >0x0D TIF> >0x21 TIF> >0x0D TIF> >0x21 TIF> >0x0D TIF> >0x28 TIF> >0x0D TIF> >0x28 TIF> >0x0D TIF> >0x28 TIF> >0x0D TIF> >0x28 TIF> >0x0D TIF> >0x28 TIF>
 >0x0D TIF> >0x21 TIF> >0x0D TIF> >0x21 TIF> >0x0D TIF> >0x21 TIF>TPIU fitted.ETM fitted. >0x0D TIF> >0x28 TIF> >0x0D TIF> >0x21 TIF> >0x0D TIF> >0x21 TIF> >0x0D TIF> >0x28 TIF> >0x0D TIF> >0x21 TIF> >0x0D TIF> >0x21 TIF>FPUnit: 6 code (BP) slots and 2 literal slots >0x0D TIF> >0x28 TIF> >0x0D TIF> >0x21 TIF> >0x0D TIF> >0x21 TIF> >0x0D TIF> >0x28 TIF> >0x0D TIF> >0x28 TIF> >0x0D TIF> >0x28 TIF> >0x0D TIF> >0x21 TIF> >0x0D TIF> >0x21 TIF> >0x0D TIF> >0x28 TIF> >0x0D TIF> >0x21 TIF> >0x0D TIF> >0x21 TIF>
 >0x0D TIF> >0x28 TIF> >0x0D TIF> >0x21 TIF> >0x0D TIF> >0x21 TIF>Found Cortex-M3 r1p1, Little endian. >0x0D TIF> >0x21 TIF>  returns 0x1BA01477 (0166ms, 0270ms total)
T23E0 000:299 JLINK_GetDeviceFamily()  returns 3 (0000ms, 0270ms total)
T23E0 000:306 JLINK_ReadMem (0xE00FFFF0, 0x0010 Bytes, ...) -- CPU is running -- CPU_ReadMem(16 bytes @ 0xE00FFFF0) -- Data:  0D 00 00 00 10 00 00 00 05 00 00 00 B1 00 00 00  returns 0x00 (0001ms, 0271ms total)
T23E0 000:307 JLINK_ReadMem (0xE00FFFD0, 0x0020 Bytes, ...) -- CPU is running -- CPU_ReadMem(32 bytes @ 0xE00FFFD0) -- Data:  00 00 00 00 00 00 00 00 00 00 00 00 00 00 00 00 ...  returns 0x00 (0001ms, 0272ms total)
T23E0 000:308 JLINK_ReadMem (0xE00FF000, 0x0018 Bytes, ...) -- CPU is running -- CPU_ReadMem(24 bytes @ 0xE00FF000) -- Data:  03 F0 F0 FF 03 20 F0 FF 03 30 F0 FF 03 10 F0 FF ...  returns 0x00 (0001ms, 0273ms total)
T23E0 000:309 JLINK_ReadMemU32(0xE000ED00, 0x0001 Items, ...) -- CPU is running -- CPU_ReadMem(4 bytes @ 0xE000ED00) -- Data:  31 C2 1F 41  returns 0x01 (0001ms, 0274ms total)
T23E0 000:310 JLINK_SetResetType(JLINKARM_RESET_TYPE_NORMAL)  returns JLINKARM_RESET_TYPE_NORMAL (0000ms, 0274ms total)
T23E0 000:310 JLINK_Reset() -- CPU is running -- CPU_WriteMem(4 bytes @ 0xE000EDF0) -- CPU is running -- CPU_WriteMem(4 bytes @ 0xE000EDFC) >0x35 TIF> -- CPU is running -- CPU_WriteMem(4 bytes @ 0xE000ED0C) -- CPU is running -- CPU_ReadMem(4 bytes @ 0xE000EDF0) -- CPU is running -- CPU_ReadMem(4 bytes @ 0xE000EDF0) -- CPU is running -- CPU_WriteMem(4 bytes @ 0xE000EDF0) -- CPU is running -- CPU_WriteMem(4 bytes @ 0xE000EDFC) -- CPU is running -- CPU_ReadMem(4 bytes @ 0xE000EDF0)
 -- CPU_WriteMem(4 bytes @ 0xE0002000) (0022ms, 0296ms total)
T23E0 000:332 JLINK_Halt()  returns 0x00 (0000ms, 0296ms total)
T23E0 000:332 JLINK_IsHalted()  returns TRUE (0000ms, 0296ms total)
T23E0 000:332 JLINK_ReadMemU32(0xE000EDF0, 0x0001 Items, ...) -- CPU_ReadMem(4 bytes @ 0xE000EDF0) -- Data:  03 00 03 00  returns 0x01 (0001ms, 0297ms total)
T23E0 000:333 JLINK_WriteU32(0xE000EDF0, 0xA05F0003) -- CPU_WriteMem(4 bytes @ 0xE000EDF0)  returns 0x00 (0001ms, 0298ms total)
T23E0 000:334 JLINK_WriteU32(0xE000EDFC, 0x01000000) -- CPU_WriteMem(4 bytes @ 0xE000EDFC)  returns 0x00 (0001ms, 0299ms total)
T23E0 000:359 JLINK_GetHWStatus(...)  returns 0x00 (0001ms, 0300ms total)
T23E0 000:371 JLINK_GetNumBPUnits(Type = 0xFFFFFF00)  returns 0x06 (0000ms, 0300ms total)
T23E0 000:371 JLINK_GetNumBPUnits(Type = 0xF0)  returns 0x2000 (0000ms, 0300ms total)
T23E0 000:371 JLINK_GetNumWPUnits()  returns 0x04 (0000ms, 0300ms total)
T23E0 000:381 JLINK_GetSpeed()  returns 0x7D0 (0000ms, 0300ms total)
T23E0 000:386 JLINK_ReadMemU32(0xE000E004, 0x0001 Items, ...) -- CPU_ReadMem(4 bytes @ 0xE000E004) -- Data:  01 00 00 00  returns 0x01 (0002ms, 0302ms total)
T23E0 000:388 JLINK_ReadMemU32(0xE000E004, 0x0001 Items, ...) -- CPU_ReadMem(4 bytes @ 0xE000E004) -- Data:  01 00 00 00  returns 0x01 (0001ms, 0303ms total)
T23E0 000:389 JLINK_WriteMem(0xE0001000, 0x001C Bytes, ...) -- Data:  01 00 00 00 00 00 00 00 00 00 00 00 00 00 00 00 ... -- CPU_WriteMem(28 bytes @ 0xE0001000)  returns 0x1C (0001ms, 0304ms total)
T23E0 000:390 JLINK_ReadMem (0xE0001000, 0x001C Bytes, ...) -- CPU_ReadMem(28 bytes @ 0xE0001000) -- Data:  01 00 00 40 00 00 00 00 00 00 00 00 00 00 00 00 ...  returns 0x00 (0001ms, 0305ms total)
T23E0 000:391 JLINK_Halt()  returns 0x00 (0000ms, 0305ms total)
T23E0 000:391 JLINK_IsHalted()  returns TRUE (0000ms, 0305ms total)
T23E0 000:392 JLINK_WriteMem(0x20000000, 0x0164 Bytes, ...) -- Data:  00 BE 0A E0 0D 78 2D 06 68 40 08 24 40 00 00 D3 ... -- CPU_WriteMem(356 bytes @ 0x20000000)  returns 0x164 (0005ms, 0310ms total)
T23E0 000:397 JLINK_WriteReg(R0, 0x08000000)  returns 0x00 (0000ms, 0310ms total)
T23E0 000:397 JLINK_WriteReg(R1, 0x007A1200)  returns 0x00 (0000ms, 0310ms total)
T23E0 000:397 JLINK_WriteReg(R2, 0x00000001)  returns 0x00 (0000ms, 0310ms total)
T23E0 000:397 JLINK_WriteReg(R3, 0x00000000)  returns 0x00 (0000ms, 0310ms total)
T23E0 000:397 JLINK_WriteReg(R4, 0x00000000)  returns 0x00 (0000ms, 0310ms total)
T23E0 000:397 JLINK_WriteReg(R5, 0x00000000)  returns 0x00 (0000ms, 0310ms total)
T23E0 000:397 JLINK_WriteReg(R6, 0x00000000)  returns 0x00 (0000ms, 0310ms total)
T23E0 000:397 JLINK_WriteReg(R7, 0x00000000)  returns 0x00 (0000ms, 0310ms total)
T23E0 000:397 JLINK_WriteReg(R8, 0x00000000)  returns 0x00 (0000ms, 0310ms total)
T23E0 000:397 JLINK_WriteReg(R9, 0x20000160)  returns 0x00 (0000ms, 0310ms total)
T23E0 000:397 JLINK_WriteReg(R10, 0x00000000)  returns 0x00 (0000ms, 0310ms total)
T23E0 000:397 JLINK_WriteReg(R11, 0x00000000)  returns 0x00 (0000ms, 0310ms total)
T23E0 000:397 JLINK_WriteReg(R12, 0x00000000)  returns 0x00 (0000ms, 0310ms total)
T23E0 000:397 JLINK_WriteReg(R13, 0x20000800)  returns 0x00 (0000ms, 0310ms total)
T23E0 000:397 JLINK_WriteReg(R14, 0x20000001)  returns 0x00 (0000ms, 0310ms total)
T23E0 000:397 JLINK_WriteReg(R15, 0x20000038)  returns 0x00 (0000ms, 0310ms total)
T23E0 000:397 JLINK_WriteReg(XPSR, 0x01000000)  returns 0x00 (0000ms, 0310ms total)
T23E0 000:397 JLINK_WriteReg(MSP, 0x20000800)  returns 0x00 (0000ms, 0310ms total)
T23E0 000:397 JLINK_WriteReg(PSP, 0x20000800)  returns 0x00 (0000ms, 0310ms total)
T23E0 000:397 JLINK_WriteReg(CFBP, 0x00000000)  returns 0x00 (0000ms, 0310ms total)
T23E0 000:397 JLINK_SetBPEx(Addr = 0x20000000, Type = 0xFFFFFFF2) -- CPU_ReadMem(2 bytes @ 0x20000000)  returns 0x00000001 (0001ms, 0311ms total)
T23E0 000:398 JLINK_Go() -- CPU_WriteMem(2 bytes @ 0x20000000) -- CPU_WriteMem(4 bytes @ 0xE0002008) -- CPU_WriteMem(4 bytes @ 0xE000200C) -- CPU_WriteMem(4 bytes @ 0xE0002010) -- CPU_WriteMem(4 bytes @ 0xE0002014) -- CPU_WriteMem(4 bytes @ 0xE0002018) -- CPU_WriteMem(4 bytes @ 0xE000201C) (0010ms, 0321ms total)
T23E0 000:408 JLINK_IsHalted() -- CPU_ReadMem(2 bytes @ 0x20000000)  returns TRUE (0006ms, 0327ms total)
T23E0 000:414 JLINK_ReadReg(R15)  returns 0x20000000 (0000ms, 0321ms total)
T23E0 000:414 JLINK_ClrBPEx(BPHandle = 0x00000001)  returns 0x00 (0000ms, 0321ms total)
T23E0 000:414 JLINK_ReadReg(R0)  returns 0x00000000 (0000ms, 0321ms total)
T23E0 000:414 JLINK_WriteReg(R0, 0x08000000)  returns 0x00 (0000ms, 0321ms total)
T23E0 000:414 JLINK_WriteReg(R1, 0x007A1200)  returns 0x00 (0000ms, 0321ms total)
T23E0 000:414 JLINK_WriteReg(R2, 0x00000001)  returns 0x00 (0000ms, 0321ms total)
T23E0 000:414 JLINK_WriteReg(R3, 0x00000000)  returns 0x00 (0000ms, 0321ms total)
T23E0 000:414 JLINK_WriteReg(R4, 0x00000000)  returns 0x00 (0000ms, 0321ms total)
T23E0 000:414 JLINK_WriteReg(R5, 0x00000000)  returns 0x00 (0000ms, 0321ms total)
T23E0 000:414 JLINK_WriteReg(R6, 0x00000000)  returns 0x00 (0000ms, 0321ms total)
T23E0 000:414 JLINK_WriteReg(R7, 0x00000000)  returns 0x00 (0000ms, 0321ms total)
T23E0 000:414 JLINK_WriteReg(R8, 0x00000000)  returns 0x00 (0000ms, 0321ms total)
T23E0 000:414 JLINK_WriteReg(R9, 0x20000160)  returns 0x00 (0000ms, 0321ms total)
T23E0 000:414 JLINK_WriteReg(R10, 0x00000000)  returns 0x00 (0000ms, 0321ms total)
T23E0 000:414 JLINK_WriteReg(R11, 0x00000000)  returns 0x00 (0000ms, 0321ms total)
T23E0 000:414 JLINK_WriteReg(R12, 0x00000000)  returns 0x00 (0000ms, 0321ms total)
T23E0 000:414 JLINK_WriteReg(R13, 0x20000800)  returns 0x00 (0000ms, 0321ms total)
T23E0 000:414 JLINK_WriteReg(R14, 0x20000001)  returns 0x00 (0000ms, 0321ms total)
T23E0 000:414 JLINK_WriteReg(R15, 0x2000007C)  returns 0x00 (0000ms, 0321ms total)
T23E0 000:414 JLINK_WriteReg(XPSR, 0x01000000)  returns 0x00 (0000ms, 0321ms total)
T23E0 000:414 JLINK_WriteReg(MSP, 0x20000800)  returns 0x00 (0000ms, 0321ms total)
T23E0 000:414 JLINK_WriteReg(PSP, 0x20000800)  returns 0x00 (0000ms, 0321ms total)
T23E0 000:414 JLINK_WriteReg(CFBP, 0x00000000)  returns 0x00 (0000ms, 0321ms total)
T23E0 000:414 JLINK_SetBPEx(Addr = 0x20000000, Type = 0xFFFFFFF2)  returns 0x00000002 (0000ms, 0321ms total)
T23E0 000:414 JLINK_Go() (0003ms, 0324ms total)
T23E0 000:417 JLINK_IsHalted()  returns FALSE (0001ms, 0325ms total)
T23E0 000:451 JLINK_IsHalted() -- CPU_ReadMem(2 bytes @ 0x20000000)  returns TRUE (0005ms, 0329ms total)
T23E0 000:456 JLINK_ReadReg(R15)  returns 0x20000000 (0000ms, 0324ms total)
T23E0 000:456 JLINK_ClrBPEx(BPHandle = 0x00000002)  returns 0x00 (0000ms, 0324ms total)
T23E0 000:456 JLINK_ReadReg(R0)  returns 0x00000000 (0000ms, 0324ms total)
T23E0 000:507 JLINK_WriteReg(R0, 0x00000001)  returns 0x00 (0000ms, 0324ms total)
T23E0 000:507 JLINK_WriteReg(R1, 0x007A1200)  returns 0x00 (0000ms, 0324ms total)
T23E0 000:507 JLINK_WriteReg(R2, 0x00000001)  returns 0x00 (0000ms, 0324ms total)
T23E0 000:507 JLINK_WriteReg(R3, 0x00000000)  returns 0x00 (0000ms, 0324ms total)
T23E0 000:507 JLINK_WriteReg(R4, 0x00000000)  returns 0x00 (0000ms, 0324ms total)
T23E0 000:507 JLINK_WriteReg(R5, 0x00000000)  returns 0x00 (0000ms, 0324ms total)
T23E0 000:507 JLINK_WriteReg(R6, 0x00000000)  returns 0x00 (0000ms, 0324ms total)
T23E0 000:507 JLINK_WriteReg(R7, 0x00000000)  returns 0x00 (0000ms, 0324ms total)
T23E0 000:507 JLINK_WriteReg(R8, 0x00000000)  returns 0x00 (0000ms, 0324ms total)
T23E0 000:507 JLINK_WriteReg(R9, 0x20000160)  returns 0x00 (0000ms, 0324ms total)
T23E0 000:507 JLINK_WriteReg(R10, 0x00000000)  returns 0x00 (0001ms, 0325ms total)
T23E0 000:508 JLINK_WriteReg(R11, 0x00000000)  returns 0x00 (0000ms, 0325ms total)
T23E0 000:508 JLINK_WriteReg(R12, 0x00000000)  returns 0x00 (0000ms, 0325ms total)
T23E0 000:508 JLINK_WriteReg(R13, 0x20000800)  returns 0x00 (0000ms, 0325ms total)
T23E0 000:508 JLINK_WriteReg(R14, 0x20000001)  returns 0x00 (0000ms, 0325ms total)
T23E0 000:508 JLINK_WriteReg(R15, 0x2000006A)  returns 0x00 (0000ms, 0325ms total)
T23E0 000:508 JLINK_WriteReg(XPSR, 0x01000000)  returns 0x00 (0000ms, 0325ms total)
T23E0 000:508 JLINK_WriteReg(MSP, 0x20000800)  returns 0x00 (0000ms, 0325ms total)
T23E0 000:508 JLINK_WriteReg(PSP, 0x20000800)  returns 0x00 (0000ms, 0325ms total)
T23E0 000:508 JLINK_WriteReg(CFBP, 0x00000000)  returns 0x00 (0000ms, 0325ms total)
T23E0 000:508 JLINK_SetBPEx(Addr = 0x20000000, Type = 0xFFFFFFF2)  returns 0x00000003 (0000ms, 0325ms total)
T23E0 000:508 JLINK_Go() (0002ms, 0327ms total)
T23E0 000:510 JLINK_IsHalted() -- CPU_ReadMem(2 bytes @ 0x20000000)  returns TRUE (0006ms, 0333ms total)
T23E0 000:516 JLINK_ReadReg(R15)  returns 0x20000000 (0000ms, 0327ms total)
T23E0 000:516 JLINK_ClrBPEx(BPHandle = 0x00000003)  returns 0x00 (0000ms, 0327ms total)
T23E0 000:516 JLINK_ReadReg(R0)  returns 0x00000000 (0000ms, 0327ms total)
T23E0 000:528 JLINK_WriteMem(0x20000000, 0x0164 Bytes, ...) -- Data:  00 BE 0A E0 0D 78 2D 06 68 40 08 24 40 00 00 D3 ... -- CPU_WriteMem(356 bytes @ 0x20000000)  returns 0x164 (0004ms, 0331ms total)
T23E0 000:532 JLINK_WriteReg(R0, 0x08000000)  returns 0x00 (0000ms, 0331ms total)
T23E0 000:532 JLINK_WriteReg(R1, 0x007A1200)  returns 0x00 (0000ms, 0331ms total)
T23E0 000:532 JLINK_WriteReg(R2, 0x00000002)  returns 0x00 (0000ms, 0331ms total)
T23E0 000:532 JLINK_WriteReg(R3, 0x00000000)  returns 0x00 (0001ms, 0332ms total)
T23E0 000:533 JLINK_WriteReg(R4, 0x00000000)  returns 0x00 (0000ms, 0332ms total)
T23E0 000:533 JLINK_WriteReg(R5, 0x00000000)  returns 0x00 (0000ms, 0332ms total)
T23E0 000:533 JLINK_WriteReg(R6, 0x00000000)  returns 0x00 (0000ms, 0332ms total)
T23E0 000:533 JLINK_WriteReg(R7, 0x00000000)  returns 0x00 (0000ms, 0332ms total)
T23E0 000:533 JLINK_WriteReg(R8, 0x00000000)  returns 0x00 (0000ms, 0332ms total)
T23E0 000:533 JLINK_WriteReg(R9, 0x20000160)  returns 0x00 (0000ms, 0332ms total)
T23E0 000:533 JLINK_WriteReg(R10, 0x00000000)  returns 0x00 (0000ms, 0332ms total)
T23E0 000:533 JLINK_WriteReg(R11, 0x00000000)  returns 0x00 (0000ms, 0332ms total)
T23E0 000:533 JLINK_WriteReg(R12, 0x00000000)  returns 0x00 (0000ms, 0332ms total)
T23E0 000:533 JLINK_WriteReg(R13, 0x20000800)  returns 0x00 (0000ms, 0332ms total)
T23E0 000:533 JLINK_WriteReg(R14, 0x20000001)  returns 0x00 (0000ms, 0332ms total)
T23E0 000:533 JLINK_WriteReg(R15, 0x20000038)  returns 0x00 (0000ms, 0332ms total)
T23E0 000:533 JLINK_WriteReg(XPSR, 0x01000000)  returns 0x00 (0000ms, 0332ms total)
T23E0 000:533 JLINK_WriteReg(MSP, 0x20000800)  returns 0x00 (0000ms, 0332ms total)
T23E0 000:533 JLINK_WriteReg(PSP, 0x20000800)  returns 0x00 (0000ms, 0332ms total)
T23E0 000:533 JLINK_WriteReg(CFBP, 0x00000000)  returns 0x00 (0000ms, 0332ms total)
T23E0 000:533 JLINK_SetBPEx(Addr = 0x20000000, Type = 0xFFFFFFF2) -- CPU_ReadMem(2 bytes @ 0x20000000)  returns 0x00000004 (0002ms, 0334ms total)
T23E0 000:535 JLINK_Go() -- CPU_WriteMem(2 bytes @ 0x20000000) (0004ms, 0338ms total)
T23E0 000:539 JLINK_IsHalted() -- CPU_ReadMem(2 bytes @ 0x20000000)  returns TRUE (0005ms, 0343ms total)
T23E0 000:544 JLINK_ReadReg(R15)  returns 0x20000000 (0000ms, 0338ms total)
T23E0 000:544 JLINK_ClrBPEx(BPHandle = 0x00000004)  returns 0x00 (0000ms, 0338ms total)
T23E0 000:544 JLINK_ReadReg(R0)  returns 0x00000000 (0000ms, 0338ms total)
T23E0 000:545 JLINK_WriteMem(0x20000164, 0x0400 Bytes, ...) -- Data:  20 76 00 20 31 01 00 08 35 01 00 08 37 01 00 08 ... -- CPU_WriteMem(1024 bytes @ 0x20000164)  returns 0x400 (0011ms, 0349ms total)
T23E0 000:556 JLINK_WriteReg(R0, 0x08000000)  returns 0x00 (0000ms, 0349ms total)
T23E0 000:556 JLINK_WriteReg(R1, 0x00000400)  returns 0x00 (0000ms, 0349ms total)
T23E0 000:556 JLINK_WriteReg(R2, 0x20000164)  returns 0x00 (0000ms, 0349ms total)
T23E0 000:556 JLINK_WriteReg(R3, 0x00000000)  returns 0x00 (0000ms, 0349ms total)
T23E0 000:556 JLINK_WriteReg(R4, 0x00000000)  returns 0x00 (0000ms, 0349ms total)
T23E0 000:556 JLINK_WriteReg(R5, 0x00000000)  returns 0x00 (0001ms, 0350ms total)
T23E0 000:557 JLINK_WriteReg(R6, 0x00000000)  returns 0x00 (0000ms, 0350ms total)
T23E0 000:557 JLINK_WriteReg(R7, 0x00000000)  returns 0x00 (0000ms, 0350ms total)
T23E0 000:557 JLINK_WriteReg(R8, 0x00000000)  returns 0x00 (0000ms, 0350ms total)
T23E0 000:557 JLINK_WriteReg(R9, 0x20000160)  returns 0x00 (0000ms, 0350ms total)
T23E0 000:557 JLINK_WriteReg(R10, 0x00000000)  returns 0x00 (0000ms, 0350ms total)
T23E0 000:557 JLINK_WriteReg(R11, 0x00000000)  returns 0x00 (0000ms, 0350ms total)
T23E0 000:557 JLINK_WriteReg(R12, 0x00000000)  returns 0x00 (0000ms, 0350ms total)
T23E0 000:557 JLINK_WriteReg(R13, 0x20000800)  returns 0x00 (0000ms, 0350ms total)
T23E0 000:557 JLINK_WriteReg(R14, 0x20000001)  returns 0x00 (0000ms, 0350ms total)
T23E0 000:557 JLINK_WriteReg(R15, 0x200000F4)  returns 0x00 (0000ms, 0350ms total)
T23E0 000:557 JLINK_WriteReg(XPSR, 0x01000000)  returns 0x00 (0000ms, 0350ms total)
T23E0 000:557 JLINK_WriteReg(MSP, 0x20000800)  returns 0x00 (0000ms, 0350ms total)
T23E0 000:557 JLINK_WriteReg(PSP, 0x20000800)  returns 0x00 (0000ms, 0350ms total)
T23E0 000:557 JLINK_WriteReg(CFBP, 0x00000000)  returns 0x00 (0000ms, 0350ms total)
T23E0 000:557 JLINK_SetBPEx(Addr = 0x20000000, Type = 0xFFFFFFF2)  returns 0x00000005 (0000ms, 0350ms total)
T23E0 000:557 JLINK_Go() (0002ms, 0352ms total)
T23E0 000:560 JLINK_IsHalted()  returns FALSE (0001ms, 0354ms total)
T23E0 000:614 JLINK_IsHalted() -- CPU_ReadMem(2 bytes @ 0x20000000)  returns TRUE (0005ms, 0358ms total)
T23E0 000:619 JLINK_ReadReg(R15)  returns 0x20000000 (0000ms, 0353ms total)
T23E0 000:619 JLINK_ClrBPEx(BPHandle = 0x00000005)  returns 0x00 (0000ms, 0353ms total)
T23E0 000:619 JLINK_ReadReg(R0)  returns 0x00000000 (0000ms, 0353ms total)
T23E0 000:620 JLINK_WriteMem(0x20000164, 0x0400 Bytes, ...) -- Data:  8A 68 12 F0 08 0F 01 D0 01 20 00 E0 00 20 70 47 ... -- CPU_WriteMem(1024 bytes @ 0x20000164)  returns 0x400 (0011ms, 0364ms total)
T23E0 000:631 JLINK_WriteReg(R0, 0x08000400)  returns 0x00 (0000ms, 0364ms total)
T23E0 000:631 JLINK_WriteReg(R1, 0x00000400)  returns 0x00 (0000ms, 0364ms total)
T23E0 000:631 JLINK_WriteReg(R2, 0x20000164)  returns 0x00 (0000ms, 0364ms total)
T23E0 000:631 JLINK_WriteReg(R3, 0x00000000)  returns 0x00 (0000ms, 0364ms total)
T23E0 000:631 JLINK_WriteReg(R4, 0x00000000)  returns 0x00 (0000ms, 0364ms total)
T23E0 000:631 JLINK_WriteReg(R5, 0x00000000)  returns 0x00 (0000ms, 0364ms total)
T23E0 000:631 JLINK_WriteReg(R6, 0x00000000)  returns 0x00 (0000ms, 0364ms total)
T23E0 000:631 JLINK_WriteReg(R7, 0x00000000)  returns 0x00 (0000ms, 0364ms total)
T23E0 000:631 JLINK_WriteReg(R8, 0x00000000)  returns 0x00 (0000ms, 0364ms total)
T23E0 000:631 JLINK_WriteReg(R9, 0x20000160)  returns 0x00 (0000ms, 0364ms total)
T23E0 000:631 JLINK_WriteReg(R10, 0x00000000)  returns 0x00 (0000ms, 0364ms total)
T23E0 000:631 JLINK_WriteReg(R11, 0x00000000)  returns 0x00 (0000ms, 0364ms total)
T23E0 000:631 JLINK_WriteReg(R12, 0x00000000)  returns 0x00 (0000ms, 0364ms total)
T23E0 000:631 JLINK_WriteReg(R13, 0x20000800)  returns 0x00 (0000ms, 0364ms total)
T23E0 000:631 JLINK_WriteReg(R14, 0x20000001)  returns 0x00 (0000ms, 0364ms total)
T23E0 000:631 JLINK_WriteReg(R15, 0x200000F4)  returns 0x00 (0000ms, 0364ms total)
T23E0 000:631 JLINK_WriteReg(XPSR, 0x01000000)  returns 0x00 (0000ms, 0364ms total)
T23E0 000:631 JLINK_WriteReg(MSP, 0x20000800)  returns 0x00 (0000ms, 0364ms total)
T23E0 000:631 JLINK_WriteReg(PSP, 0x20000800)  returns 0x00 (0000ms, 0364ms total)
T23E0 000:631 JLINK_WriteReg(CFBP, 0x00000000)  returns 0x00 (0000ms, 0364ms total)
T23E0 000:631 JLINK_SetBPEx(Addr = 0x20000000, Type = 0xFFFFFFF2)  returns 0x00000006 (0000ms, 0364ms total)
T23E0 000:631 JLINK_Go() (0003ms, 0367ms total)
T23E0 000:634 JLINK_IsHalted()  returns FALSE (0001ms, 0368ms total)
T23E0 000:651 JLINK_IsHalted()  returns FALSE (0001ms, 0368ms total)
T23E0 000:653 JLINK_IsHalted()  returns FALSE (0001ms, 0368ms total)
T23E0 000:655 JLINK_IsHalted()  returns FALSE (0001ms, 0368ms total)
T23E0 000:657 JLINK_IsHalted()  returns FALSE (0001ms, 0368ms total)
T23E0 000:659 JLINK_IsHalted()  returns FALSE (0001ms, 0368ms total)
T23E0 000:661 JLINK_IsHalted()  returns FALSE (0001ms, 0368ms total)
T23E0 000:663 JLINK_IsHalted()  returns FALSE (0001ms, 0368ms total)
T23E0 000:666 JLINK_IsHalted() -- CPU_ReadMem(2 bytes @ 0x20000000)  returns TRUE (0005ms, 0372ms total)
T23E0 000:671 JLINK_ReadReg(R15)  returns 0x20000000 (0000ms, 0367ms total)
T23E0 000:671 JLINK_ClrBPEx(BPHandle = 0x00000006)  returns 0x00 (0000ms, 0367ms total)
T23E0 000:671 JLINK_ReadReg(R0)  returns 0x00000000 (0000ms, 0367ms total)
T23E0 000:671 JLINK_WriteMem(0x20000164, 0x0400 Bytes, ...) -- Data:  7B 49 44 39 08 60 00 F0 87 FE 79 49 44 39 09 68 ... -- CPU_WriteMem(1024 bytes @ 0x20000164)  returns 0x400 (0011ms, 0378ms total)
T23E0 000:682 JLINK_WriteReg(R0, 0x08000800)  returns 0x00 (0000ms, 0378ms total)
T23E0 000:682 JLINK_WriteReg(R1, 0x00000400)  returns 0x00 (0000ms, 0378ms total)
T23E0 000:682 JLINK_WriteReg(R2, 0x20000164)  returns 0x00 (0000ms, 0378ms total)
T23E0 000:682 JLINK_WriteReg(R3, 0x00000000)  returns 0x00 (0000ms, 0378ms total)
T23E0 000:682 JLINK_WriteReg(R4, 0x00000000)  returns 0x00 (0001ms, 0379ms total)
T23E0 000:683 JLINK_WriteReg(R5, 0x00000000)  returns 0x00 (0000ms, 0379ms total)
T23E0 000:683 JLINK_WriteReg(R6, 0x00000000)  returns 0x00 (0000ms, 0379ms total)
T23E0 000:683 JLINK_WriteReg(R7, 0x00000000)  returns 0x00 (0000ms, 0379ms total)
T23E0 000:683 JLINK_WriteReg(R8, 0x00000000)  returns 0x00 (0000ms, 0379ms total)
T23E0 000:683 JLINK_WriteReg(R9, 0x20000160)  returns 0x00 (0000ms, 0379ms total)
T23E0 000:683 JLINK_WriteReg(R10, 0x00000000)  returns 0x00 (0000ms, 0379ms total)
T23E0 000:683 JLINK_WriteReg(R11, 0x00000000)  returns 0x00 (0000ms, 0379ms total)
T23E0 000:683 JLINK_WriteReg(R12, 0x00000000)  returns 0x00 (0000ms, 0379ms total)
T23E0 000:683 JLINK_WriteReg(R13, 0x20000800)  returns 0x00 (0000ms, 0379ms total)
T23E0 000:683 JLINK_WriteReg(R14, 0x20000001)  returns 0x00 (0000ms, 0379ms total)
T23E0 000:683 JLINK_WriteReg(R15, 0x200000F4)  returns 0x00 (0000ms, 0379ms total)
T23E0 000:683 JLINK_WriteReg(XPSR, 0x01000000)  returns 0x00 (0000ms, 0379ms total)
T23E0 000:683 JLINK_WriteReg(MSP, 0x20000800)  returns 0x00 (0000ms, 0379ms total)
T23E0 000:683 JLINK_WriteReg(PSP, 0x20000800)  returns 0x00 (0000ms, 0379ms total)
T23E0 000:683 JLINK_WriteReg(CFBP, 0x00000000)  returns 0x00 (0000ms, 0379ms total)
T23E0 000:683 JLINK_SetBPEx(Addr = 0x20000000, Type = 0xFFFFFFF2)  returns 0x00000007 (0000ms, 0379ms total)
T23E0 000:683 JLINK_Go() (0002ms, 0381ms total)
T23E0 000:685 JLINK_IsHalted()  returns FALSE (0001ms, 0382ms total)
T23E0 000:687 JLINK_IsHalted()  returns FALSE (0000ms, 0381ms total)
T23E0 000:688 JLINK_IsHalted()  returns FALSE (0000ms, 0381ms total)
T23E0 000:689 JLINK_IsHalted()  returns FALSE (0000ms, 0381ms total)
T23E0 000:690 JLINK_IsHalted()  returns FALSE (0000ms, 0381ms total)
T23E0 000:691 JLINK_IsHalted()  returns FALSE (0000ms, 0381ms total)
T23E0 000:692 JLINK_IsHalted()  returns FALSE (0000ms, 0381ms total)
T23E0 000:693 JLINK_IsHalted()  returns FALSE (0000ms, 0381ms total)
T23E0 000:694 JLINK_IsHalted()  returns FALSE (0000ms, 0381ms total)
T23E0 000:695 JLINK_IsHalted()  returns FALSE (0000ms, 0381ms total)
T23E0 000:696 JLINK_IsHalted()  returns FALSE (0000ms, 0381ms total)
T23E0 000:697 JLINK_IsHalted()  returns FALSE (0000ms, 0381ms total)
T23E0 000:698 JLINK_IsHalted()  returns FALSE (0000ms, 0381ms total)
T23E0 000:699 JLINK_IsHalted()  returns FALSE (0000ms, 0381ms total)
T23E0 000:701 JLINK_IsHalted()  returns FALSE (0001ms, 0382ms total)
T23E0 000:703 JLINK_IsHalted()  returns FALSE (0001ms, 0382ms total)
T23E0 000:705 JLINK_IsHalted()  returns FALSE (0001ms, 0382ms total)
T23E0 000:707 JLINK_IsHalted()  returns FALSE (0001ms, 0382ms total)
T23E0 000:713 JLINK_IsHalted()  returns FALSE (0001ms, 0382ms total)
T23E0 000:715 JLINK_IsHalted()  returns FALSE (0001ms, 0382ms total)
T23E0 000:717 JLINK_IsHalted() -- CPU_ReadMem(2 bytes @ 0x20000000)  returns TRUE (0005ms, 0386ms total)
T23E0 000:722 JLINK_ReadReg(R15)  returns 0x20000000 (0000ms, 0381ms total)
T23E0 000:722 JLINK_ClrBPEx(BPHandle = 0x00000007)  returns 0x00 (0000ms, 0381ms total)
T23E0 000:722 JLINK_ReadReg(R0)  returns 0x00000000 (0000ms, 0381ms total)
T23E0 000:723 JLINK_WriteMem(0x20000164, 0x0400 Bytes, ...) -- Data:  09 68 41 F4 70 41 0A 4A 11 60 08 E0 06 E0 08 49 ... -- CPU_WriteMem(1024 bytes @ 0x20000164)  returns 0x400 (0011ms, 0392ms total)
T23E0 000:734 JLINK_WriteReg(R0, 0x08000C00)  returns 0x00 (0000ms, 0392ms total)
T23E0 000:734 JLINK_WriteReg(R1, 0x00000400)  returns 0x00 (0000ms, 0392ms total)
T23E0 000:734 JLINK_WriteReg(R2, 0x20000164)  returns 0x00 (0000ms, 0392ms total)
T23E0 000:734 JLINK_WriteReg(R3, 0x00000000)  returns 0x00 (0000ms, 0392ms total)
T23E0 000:734 JLINK_WriteReg(R4, 0x00000000)  returns 0x00 (0000ms, 0392ms total)
T23E0 000:734 JLINK_WriteReg(R5, 0x00000000)  returns 0x00 (0000ms, 0392ms total)
T23E0 000:734 JLINK_WriteReg(R6, 0x00000000)  returns 0x00 (0000ms, 0392ms total)
T23E0 000:734 JLINK_WriteReg(R7, 0x00000000)  returns 0x00 (0000ms, 0392ms total)
T23E0 000:734 JLINK_WriteReg(R8, 0x00000000)  returns 0x00 (0000ms, 0392ms total)
T23E0 000:734 JLINK_WriteReg(R9, 0x20000160)  returns 0x00 (0000ms, 0392ms total)
T23E0 000:734 JLINK_WriteReg(R10, 0x00000000)  returns 0x00 (0000ms, 0392ms total)
T23E0 000:734 JLINK_WriteReg(R11, 0x00000000)  returns 0x00 (0000ms, 0392ms total)
T23E0 000:734 JLINK_WriteReg(R12, 0x00000000)  returns 0x00 (0000ms, 0392ms total)
T23E0 000:734 JLINK_WriteReg(R13, 0x20000800)  returns 0x00 (0000ms, 0392ms total)
T23E0 000:734 JLINK_WriteReg(R14, 0x20000001)  returns 0x00 (0000ms, 0392ms total)
T23E0 000:734 JLINK_WriteReg(R15, 0x200000F4)  returns 0x00 (0000ms, 0392ms total)
T23E0 000:734 JLINK_WriteReg(XPSR, 0x01000000)  returns 0x00 (0000ms, 0392ms total)
T23E0 000:734 JLINK_WriteReg(MSP, 0x20000800)  returns 0x00 (0000ms, 0392ms total)
T23E0 000:734 JLINK_WriteReg(PSP, 0x20000800)  returns 0x00 (0000ms, 0392ms total)
T23E0 000:734 JLINK_WriteReg(CFBP, 0x00000000)  returns 0x00 (0000ms, 0392ms total)
T23E0 000:734 JLINK_SetBPEx(Addr = 0x20000000, Type = 0xFFFFFFF2)  returns 0x00000008 (0000ms, 0392ms total)
T23E0 000:734 JLINK_Go() (0003ms, 0395ms total)
T23E0 000:737 JLINK_IsHalted()  returns FALSE (0001ms, 0396ms total)
T23E0 000:739 JLINK_IsHalted()  returns FALSE (0001ms, 0396ms total)
T23E0 000:781 JLINK_IsHalted() -- CPU_ReadMem(2 bytes @ 0x20000000)  returns TRUE (0005ms, 0400ms total)
T23E0 000:786 JLINK_ReadReg(R15)  returns 0x20000000 (0000ms, 0395ms total)
T23E0 000:787 JLINK_ClrBPEx(BPHandle = 0x00000008)  returns 0x00 (0000ms, 0396ms total)
T23E0 000:787 JLINK_ReadReg(R0)  returns 0x00000000 (0000ms, 0396ms total)
T23E0 000:787 JLINK_WriteMem(0x20000164, 0x0400 Bytes, ...) -- Data:  91 F8 2C 10 88 42 03 DA 00 20 19 49 08 70 0E E0 ... -- CPU_WriteMem(1024 bytes @ 0x20000164)  returns 0x400 (0011ms, 0407ms total)
T23E0 000:798 JLINK_WriteReg(R0, 0x08001000)  returns 0x00 (0000ms, 0407ms total)
T23E0 000:798 JLINK_WriteReg(R1, 0x00000400)  returns 0x00 (0000ms, 0407ms total)
T23E0 000:798 JLINK_WriteReg(R2, 0x20000164)  returns 0x00 (0000ms, 0407ms total)
T23E0 000:798 JLINK_WriteReg(R3, 0x00000000)  returns 0x00 (0000ms, 0407ms total)
T23E0 000:798 JLINK_WriteReg(R4, 0x00000000)  returns 0x00 (0000ms, 0407ms total)
T23E0 000:798 JLINK_WriteReg(R5, 0x00000000)  returns 0x00 (0000ms, 0407ms total)
T23E0 000:798 JLINK_WriteReg(R6, 0x00000000)  returns 0x00 (0000ms, 0407ms total)
T23E0 000:798 JLINK_WriteReg(R7, 0x00000000)  returns 0x00 (0000ms, 0407ms total)
T23E0 000:798 JLINK_WriteReg(R8, 0x00000000)  returns 0x00 (0000ms, 0407ms total)
T23E0 000:798 JLINK_WriteReg(R9, 0x20000160)  returns 0x00 (0000ms, 0407ms total)
T23E0 000:798 JLINK_WriteReg(R10, 0x00000000)  returns 0x00 (0000ms, 0407ms total)
T23E0 000:798 JLINK_WriteReg(R11, 0x00000000)  returns 0x00 (0000ms, 0407ms total)
T23E0 000:798 JLINK_WriteReg(R12, 0x00000000)  returns 0x00 (0000ms, 0407ms total)
T23E0 000:798 JLINK_WriteReg(R13, 0x20000800)  returns 0x00 (0000ms, 0407ms total)
T23E0 000:798 JLINK_WriteReg(R14, 0x20000001)  returns 0x00 (0000ms, 0407ms total)
T23E0 000:798 JLINK_WriteReg(R15, 0x200000F4)  returns 0x00 (0000ms, 0407ms total)
T23E0 000:798 JLINK_WriteReg(XPSR, 0x01000000)  returns 0x00 (0000ms, 0407ms total)
T23E0 000:798 JLINK_WriteReg(MSP, 0x20000800)  returns 0x00 (0001ms, 0408ms total)
T23E0 000:799 JLINK_WriteReg(PSP, 0x20000800)  returns 0x00 (0000ms, 0408ms total)
T23E0 000:799 JLINK_WriteReg(CFBP, 0x00000000)  returns 0x00 (0000ms, 0408ms total)
T23E0 000:799 JLINK_SetBPEx(Addr = 0x20000000, Type = 0xFFFFFFF2)  returns 0x00000009 (0000ms, 0408ms total)
T23E0 000:799 JLINK_Go() (0002ms, 0410ms total)
T23E0 000:801 JLINK_IsHalted()  returns FALSE (0001ms, 0411ms total)
T23E0 000:806 JLINK_IsHalted()  returns FALSE (0001ms, 0411ms total)
T23E0 000:808 JLINK_IsHalted()  returns FALSE (0001ms, 0411ms total)
T23E0 000:811 JLINK_IsHalted()  returns FALSE (0001ms, 0411ms total)
T23E0 000:813 JLINK_IsHalted()  returns FALSE (0001ms, 0411ms total)
T23E0 000:815 JLINK_IsHalted()  returns FALSE (0001ms, 0411ms total)
T23E0 000:817 JLINK_IsHalted()  returns FALSE (0001ms, 0411ms total)
T23E0 000:821 JLINK_IsHalted()  returns FALSE (0001ms, 0411ms total)
T23E0 000:823 JLINK_IsHalted()  returns FALSE (0001ms, 0411ms total)
T23E0 000:825 JLINK_IsHalted()  returns FALSE (0001ms, 0411ms total)
T23E0 000:828 JLINK_IsHalted()  returns FALSE (0001ms, 0411ms total)
T23E0 000:830 JLINK_IsHalted()  returns FALSE (0001ms, 0411ms total)
T23E0 000:832 JLINK_IsHalted() -- CPU_ReadMem(2 bytes @ 0x20000000)  returns TRUE (0005ms, 0415ms total)
T23E0 000:837 JLINK_ReadReg(R15)  returns 0x20000000 (0000ms, 0410ms total)
T23E0 000:837 JLINK_ClrBPEx(BPHandle = 0x00000009)  returns 0x00 (0000ms, 0410ms total)
T23E0 000:837 JLINK_ReadReg(R0)  returns 0x00000000 (0000ms, 0410ms total)
T23E0 000:837 JLINK_WriteMem(0x20000164, 0x0400 Bytes, ...) -- Data:  03 F7 BC 43 05 FA 03 FC 4C EA 04 04 91 F8 03 C0 ... -- CPU_WriteMem(1024 bytes @ 0x20000164)  returns 0x400 (0012ms, 0422ms total)
T23E0 000:849 JLINK_WriteReg(R0, 0x08001400)  returns 0x00 (0000ms, 0422ms total)
T23E0 000:849 JLINK_WriteReg(R1, 0x00000400)  returns 0x00 (0000ms, 0422ms total)
T23E0 000:849 JLINK_WriteReg(R2, 0x20000164)  returns 0x00 (0000ms, 0422ms total)
T23E0 000:849 JLINK_WriteReg(R3, 0x00000000)  returns 0x00 (0000ms, 0422ms total)
T23E0 000:849 JLINK_WriteReg(R4, 0x00000000)  returns 0x00 (0000ms, 0422ms total)
T23E0 000:849 JLINK_WriteReg(R5, 0x00000000)  returns 0x00 (0000ms, 0422ms total)
T23E0 000:849 JLINK_WriteReg(R6, 0x00000000)  returns 0x00 (0000ms, 0422ms total)
T23E0 000:849 JLINK_WriteReg(R7, 0x00000000)  returns 0x00 (0000ms, 0422ms total)
T23E0 000:849 JLINK_WriteReg(R8, 0x00000000)  returns 0x00 (0000ms, 0422ms total)
T23E0 000:849 JLINK_WriteReg(R9, 0x20000160)  returns 0x00 (0000ms, 0422ms total)
T23E0 000:849 JLINK_WriteReg(R10, 0x00000000)  returns 0x00 (0000ms, 0422ms total)
T23E0 000:849 JLINK_WriteReg(R11, 0x00000000)  returns 0x00 (0000ms, 0422ms total)
T23E0 000:849 JLINK_WriteReg(R12, 0x00000000)  returns 0x00 (0000ms, 0422ms total)
T23E0 000:849 JLINK_WriteReg(R13, 0x20000800)  returns 0x00 (0000ms, 0422ms total)
T23E0 000:849 JLINK_WriteReg(R14, 0x20000001)  returns 0x00 (0000ms, 0422ms total)
T23E0 000:849 JLINK_WriteReg(R15, 0x200000F4)  returns 0x00 (0000ms, 0422ms total)
T23E0 000:849 JLINK_WriteReg(XPSR, 0x01000000)  returns 0x00 (0000ms, 0422ms total)
T23E0 000:849 JLINK_WriteReg(MSP, 0x20000800)  returns 0x00 (0000ms, 0422ms total)
T23E0 000:849 JLINK_WriteReg(PSP, 0x20000800)  returns 0x00 (0000ms, 0422ms total)
T23E0 000:849 JLINK_WriteReg(CFBP, 0x00000000)  returns 0x00 (0000ms, 0422ms total)
T23E0 000:849 JLINK_SetBPEx(Addr = 0x20000000, Type = 0xFFFFFFF2)  returns 0x0000000A (0000ms, 0422ms total)
T23E0 000:849 JLINK_Go() (0003ms, 0425ms total)
T23E0 000:852 JLINK_IsHalted()  returns FALSE (0001ms, 0426ms total)
T23E0 000:880 JLINK_IsHalted()  returns FALSE (0001ms, 0426ms total)
T23E0 000:886 JLINK_IsHalted() -- CPU_ReadMem(2 bytes @ 0x20000000)  returns TRUE (0005ms, 0430ms total)
T23E0 000:891 JLINK_ReadReg(R15)  returns 0x20000000 (0000ms, 0425ms total)
T23E0 000:891 JLINK_ClrBPEx(BPHandle = 0x0000000A)  returns 0x00 (0000ms, 0425ms total)
T23E0 000:891 JLINK_ReadReg(R0)  returns 0x00000000 (0000ms, 0425ms total)
T23E0 000:891 JLINK_WriteMem(0x20000164, 0x0400 Bytes, ...) -- Data:  80 88 48 B9 25 48 00 68 40 7A 10 F0 20 0F 03 D0 ... -- CPU_WriteMem(1024 bytes @ 0x20000164)  returns 0x400 (0012ms, 0437ms total)
T23E0 000:903 JLINK_WriteReg(R0, 0x08001800)  returns 0x00 (0000ms, 0437ms total)
T23E0 000:903 JLINK_WriteReg(R1, 0x00000400)  returns 0x00 (0000ms, 0437ms total)
T23E0 000:903 JLINK_WriteReg(R2, 0x20000164)  returns 0x00 (0000ms, 0437ms total)
T23E0 000:903 JLINK_WriteReg(R3, 0x00000000)  returns 0x00 (0000ms, 0437ms total)
T23E0 000:903 JLINK_WriteReg(R4, 0x00000000)  returns 0x00 (0000ms, 0437ms total)
T23E0 000:903 JLINK_WriteReg(R5, 0x00000000)  returns 0x00 (0000ms, 0437ms total)
T23E0 000:903 JLINK_WriteReg(R6, 0x00000000)  returns 0x00 (0000ms, 0437ms total)
T23E0 000:903 JLINK_WriteReg(R7, 0x00000000)  returns 0x00 (0000ms, 0437ms total)
T23E0 000:903 JLINK_WriteReg(R8, 0x00000000)  returns 0x00 (0000ms, 0437ms total)
T23E0 000:903 JLINK_WriteReg(R9, 0x20000160)  returns 0x00 (0000ms, 0437ms total)
T23E0 000:903 JLINK_WriteReg(R10, 0x00000000)  returns 0x00 (0000ms, 0437ms total)
T23E0 000:903 JLINK_WriteReg(R11, 0x00000000)  returns 0x00 (0000ms, 0437ms total)
T23E0 000:903 JLINK_WriteReg(R12, 0x00000000)  returns 0x00 (0000ms, 0437ms total)
T23E0 000:903 JLINK_WriteReg(R13, 0x20000800)  returns 0x00 (0000ms, 0437ms total)
T23E0 000:903 JLINK_WriteReg(R14, 0x20000001)  returns 0x00 (0000ms, 0437ms total)
T23E0 000:903 JLINK_WriteReg(R15, 0x200000F4)  returns 0x00 (0000ms, 0437ms total)
T23E0 000:903 JLINK_WriteReg(XPSR, 0x01000000)  returns 0x00 (0000ms, 0437ms total)
T23E0 000:903 JLINK_WriteReg(MSP, 0x20000800)  returns 0x00 (0000ms, 0437ms total)
T23E0 000:903 JLINK_WriteReg(PSP, 0x20000800)  returns 0x00 (0000ms, 0437ms total)
T23E0 000:903 JLINK_WriteReg(CFBP, 0x00000000)  returns 0x00 (0000ms, 0437ms total)
T23E0 000:903 JLINK_SetBPEx(Addr = 0x20000000, Type = 0xFFFFFFF2)  returns 0x0000000B (0000ms, 0437ms total)
T23E0 000:903 JLINK_Go() (0003ms, 0440ms total)
T23E0 000:906 JLINK_IsHalted()  returns FALSE (0001ms, 0441ms total)
T23E0 000:908 JLINK_IsHalted()  returns FALSE (0001ms, 0441ms total)
T23E0 000:910 JLINK_IsHalted()  returns FALSE (0001ms, 0441ms total)
T23E0 000:912 JLINK_IsHalted()  returns FALSE (0001ms, 0441ms total)
T23E0 000:914 JLINK_IsHalted()  returns FALSE (0001ms, 0441ms total)
T23E0 000:916 JLINK_IsHalted()  returns FALSE (0001ms, 0441ms total)
T23E0 000:918 JLINK_IsHalted()  returns FALSE (0001ms, 0441ms total)
T23E0 000:920 JLINK_IsHalted()  returns FALSE (0001ms, 0441ms total)
T23E0 000:922 JLINK_IsHalted()  returns FALSE (0001ms, 0441ms total)
T23E0 000:924 JLINK_IsHalted()  returns FALSE (0001ms, 0441ms total)
T23E0 000:926 JLINK_IsHalted()  returns FALSE (0001ms, 0441ms total)
T23E0 000:939 JLINK_IsHalted() -- CPU_ReadMem(2 bytes @ 0x20000000)  returns TRUE (0005ms, 0445ms total)
T23E0 000:944 JLINK_ReadReg(R15)  returns 0x20000000 (0000ms, 0440ms total)
T23E0 000:944 JLINK_ClrBPEx(BPHandle = 0x0000000B)  returns 0x00 (0000ms, 0440ms total)
T23E0 000:944 JLINK_ReadReg(R0)  returns 0x00000000 (0000ms, 0440ms total)
T23E0 000:946 JLINK_WriteMem(0x20000164, 0x0400 Bytes, ...) -- Data:  FE F7 14 FB 28 46 C0 E7 48 46 FE F7 0F FB 28 20 ... -- CPU_WriteMem(1024 bytes @ 0x20000164)  returns 0x400 (0011ms, 0451ms total)
T23E0 000:957 JLINK_WriteReg(R0, 0x08001C00)  returns 0x00 (0000ms, 0451ms total)
T23E0 000:957 JLINK_WriteReg(R1, 0x00000400)  returns 0x00 (0000ms, 0451ms total)
T23E0 000:957 JLINK_WriteReg(R2, 0x20000164)  returns 0x00 (0000ms, 0451ms total)
T23E0 000:957 JLINK_WriteReg(R3, 0x00000000)  returns 0x00 (0000ms, 0451ms total)
T23E0 000:957 JLINK_WriteReg(R4, 0x00000000)  returns 0x00 (0000ms, 0451ms total)
T23E0 000:957 JLINK_WriteReg(R5, 0x00000000)  returns 0x00 (0000ms, 0451ms total)
T23E0 000:957 JLINK_WriteReg(R6, 0x00000000)  returns 0x00 (0000ms, 0451ms total)
T23E0 000:957 JLINK_WriteReg(R7, 0x00000000)  returns 0x00 (0000ms, 0451ms total)
T23E0 000:957 JLINK_WriteReg(R8, 0x00000000)  returns 0x00 (0000ms, 0451ms total)
T23E0 000:957 JLINK_WriteReg(R9, 0x20000160)  returns 0x00 (0000ms, 0451ms total)
T23E0 000:957 JLINK_WriteReg(R10, 0x00000000)  returns 0x00 (0000ms, 0451ms total)
T23E0 000:957 JLINK_WriteReg(R11, 0x00000000)  returns 0x00 (0000ms, 0451ms total)
T23E0 000:957 JLINK_WriteReg(R12, 0x00000000)  returns 0x00 (0001ms, 0452ms total)
T23E0 000:958 JLINK_WriteReg(R13, 0x20000800)  returns 0x00 (0000ms, 0452ms total)
T23E0 000:958 JLINK_WriteReg(R14, 0x20000001)  returns 0x00 (0000ms, 0452ms total)
T23E0 000:958 JLINK_WriteReg(R15, 0x200000F4)  returns 0x00 (0000ms, 0452ms total)
T23E0 000:958 JLINK_WriteReg(XPSR, 0x01000000)  returns 0x00 (0000ms, 0452ms total)
T23E0 000:958 JLINK_WriteReg(MSP, 0x20000800)  returns 0x00 (0000ms, 0452ms total)
T23E0 000:958 JLINK_WriteReg(PSP, 0x20000800)  returns 0x00 (0000ms, 0452ms total)
T23E0 000:958 JLINK_WriteReg(CFBP, 0x00000000)  returns 0x00 (0000ms, 0452ms total)
T23E0 000:958 JLINK_SetBPEx(Addr = 0x20000000, Type = 0xFFFFFFF2)  returns 0x0000000C (0000ms, 0452ms total)
T23E0 000:958 JLINK_Go() (0002ms, 0454ms total)
T23E0 000:960 JLINK_IsHalted()  returns FALSE (0001ms, 0455ms total)
T23E0 001:001 JLINK_IsHalted() -- CPU_ReadMem(2 bytes @ 0x20000000)  returns TRUE (0006ms, 0460ms total)
T23E0 001:007 JLINK_ReadReg(R15)  returns 0x20000000 (0000ms, 0454ms total)
T23E0 001:007 JLINK_ClrBPEx(BPHandle = 0x0000000C)  returns 0x00 (0000ms, 0454ms total)
T23E0 001:007 JLINK_ReadReg(R0)  returns 0x00000000 (0000ms, 0454ms total)
T23E0 001:007 JLINK_WriteMem(0x20000164, 0x0400 Bytes, ...) -- Data:  10 49 09 78 40 EA 01 00 0E 49 08 70 20 78 0E 49 ... -- CPU_WriteMem(1024 bytes @ 0x20000164)  returns 0x400 (0012ms, 0466ms total)
T23E0 001:019 JLINK_WriteReg(R0, 0x08002000)  returns 0x00 (0000ms, 0466ms total)
T23E0 001:019 JLINK_WriteReg(R1, 0x00000400)  returns 0x00 (0000ms, 0466ms total)
T23E0 001:019 JLINK_WriteReg(R2, 0x20000164)  returns 0x00 (0000ms, 0466ms total)
T23E0 001:019 JLINK_WriteReg(R3, 0x00000000)  returns 0x00 (0000ms, 0466ms total)
T23E0 001:019 JLINK_WriteReg(R4, 0x00000000)  returns 0x00 (0000ms, 0466ms total)
T23E0 001:019 JLINK_WriteReg(R5, 0x00000000)  returns 0x00 (0000ms, 0466ms total)
T23E0 001:019 JLINK_WriteReg(R6, 0x00000000)  returns 0x00 (0000ms, 0466ms total)
T23E0 001:019 JLINK_WriteReg(R7, 0x00000000)  returns 0x00 (0000ms, 0466ms total)
T23E0 001:019 JLINK_WriteReg(R8, 0x00000000)  returns 0x00 (0000ms, 0466ms total)
T23E0 001:019 JLINK_WriteReg(R9, 0x20000160)  returns 0x00 (0000ms, 0466ms total)
T23E0 001:019 JLINK_WriteReg(R10, 0x00000000)  returns 0x00 (0000ms, 0466ms total)
T23E0 001:019 JLINK_WriteReg(R11, 0x00000000)  returns 0x00 (0000ms, 0466ms total)
T23E0 001:019 JLINK_WriteReg(R12, 0x00000000)  returns 0x00 (0000ms, 0466ms total)
T23E0 001:019 JLINK_WriteReg(R13, 0x20000800)  returns 0x00 (0000ms, 0466ms total)
T23E0 001:019 JLINK_WriteReg(R14, 0x20000001)  returns 0x00 (0000ms, 0466ms total)
T23E0 001:019 JLINK_WriteReg(R15, 0x200000F4)  returns 0x00 (0000ms, 0466ms total)
T23E0 001:019 JLINK_WriteReg(XPSR, 0x01000000)  returns 0x00 (0000ms, 0466ms total)
T23E0 001:019 JLINK_WriteReg(MSP, 0x20000800)  returns 0x00 (0000ms, 0466ms total)
T23E0 001:019 JLINK_WriteReg(PSP, 0x20000800)  returns 0x00 (0000ms, 0466ms total)
T23E0 001:019 JLINK_WriteReg(CFBP, 0x00000000)  returns 0x00 (0000ms, 0466ms total)
T23E0 001:019 JLINK_SetBPEx(Addr = 0x20000000, Type = 0xFFFFFFF2)  returns 0x0000000D (0000ms, 0466ms total)
T23E0 001:019 JLINK_Go() (0003ms, 0469ms total)
T23E0 001:022 JLINK_IsHalted()  returns FALSE (0001ms, 0470ms total)
T23E0 001:024 JLINK_IsHalted()  returns FALSE (0001ms, 0470ms total)
T23E0 001:026 JLINK_IsHalted()  returns FALSE (0001ms, 0470ms total)
T23E0 001:028 JLINK_IsHalted()  returns FALSE (0001ms, 0470ms total)
T23E0 001:030 JLINK_IsHalted()  returns FALSE (0001ms, 0470ms total)
T23E0 001:032 JLINK_IsHalted()  returns FALSE (0001ms, 0470ms total)
T23E0 001:034 JLINK_IsHalted()  returns FALSE (0001ms, 0470ms total)
T23E0 001:038 JLINK_IsHalted()  returns FALSE (0001ms, 0470ms total)
T23E0 001:040 JLINK_IsHalted()  returns FALSE (0001ms, 0470ms total)
T23E0 001:042 JLINK_IsHalted()  returns FALSE (0001ms, 0470ms total)
T23E0 001:044 JLINK_IsHalted()  returns FALSE (0001ms, 0470ms total)
T23E0 001:046 JLINK_IsHalted()  returns FALSE (0001ms, 0470ms total)
T23E0 001:048 JLINK_IsHalted()  returns FALSE (0001ms, 0470ms total)
T23E0 001:050 JLINK_IsHalted()  returns FALSE (0001ms, 0470ms total)
T23E0 001:054 JLINK_IsHalted() -- CPU_ReadMem(2 bytes @ 0x20000000)  returns TRUE (0006ms, 0475ms total)
T23E0 001:060 JLINK_ReadReg(R15)  returns 0x20000000 (0000ms, 0469ms total)
T23E0 001:060 JLINK_ClrBPEx(BPHandle = 0x0000000D)  returns 0x00 (0000ms, 0469ms total)
T23E0 001:060 JLINK_ReadReg(R0)  returns 0x00000000 (0000ms, 0469ms total)
T23E0 001:060 JLINK_WriteMem(0x20000164, 0x0400 Bytes, ...) -- Data:  65 00 00 00 00 B5 87 B0 03 20 00 21 80 22 0A 4B ... -- CPU_WriteMem(1024 bytes @ 0x20000164)  returns 0x400 (0011ms, 0480ms total)
T23E0 001:071 JLINK_WriteReg(R0, 0x08002400)  returns 0x00 (0000ms, 0480ms total)
T23E0 001:071 JLINK_WriteReg(R1, 0x00000400)  returns 0x00 (0000ms, 0480ms total)
T23E0 001:071 JLINK_WriteReg(R2, 0x20000164)  returns 0x00 (0000ms, 0480ms total)
T23E0 001:071 JLINK_WriteReg(R3, 0x00000000)  returns 0x00 (0000ms, 0480ms total)
T23E0 001:072 JLINK_WriteReg(R4, 0x00000000)  returns 0x00 (0000ms, 0481ms total)
T23E0 001:072 JLINK_WriteReg(R5, 0x00000000)  returns 0x00 (0000ms, 0481ms total)
T23E0 001:072 JLINK_WriteReg(R6, 0x00000000)  returns 0x00 (0000ms, 0481ms total)
T23E0 001:072 JLINK_WriteReg(R7, 0x00000000)  returns 0x00 (0000ms, 0481ms total)
T23E0 001:072 JLINK_WriteReg(R8, 0x00000000)  returns 0x00 (0000ms, 0481ms total)
T23E0 001:072 JLINK_WriteReg(R9, 0x20000160)  returns 0x00 (0000ms, 0481ms total)
T23E0 001:072 JLINK_WriteReg(R10, 0x00000000)  returns 0x00 (0000ms, 0481ms total)
T23E0 001:072 JLINK_WriteReg(R11, 0x00000000)  returns 0x00 (0000ms, 0481ms total)
T23E0 001:072 JLINK_WriteReg(R12, 0x00000000)  returns 0x00 (0000ms, 0481ms total)
T23E0 001:072 JLINK_WriteReg(R13, 0x20000800)  returns 0x00 (0000ms, 0481ms total)
T23E0 001:072 JLINK_WriteReg(R14, 0x20000001)  returns 0x00 (0000ms, 0481ms total)
T23E0 001:072 JLINK_WriteReg(R15, 0x200000F4)  returns 0x00 (0000ms, 0481ms total)
T23E0 001:072 JLINK_WriteReg(XPSR, 0x01000000)  returns 0x00 (0000ms, 0481ms total)
T23E0 001:072 JLINK_WriteReg(MSP, 0x20000800)  returns 0x00 (0000ms, 0481ms total)
T23E0 001:072 JLINK_WriteReg(PSP, 0x20000800)  returns 0x00 (0000ms, 0481ms total)
T23E0 001:072 JLINK_WriteReg(CFBP, 0x00000000)  returns 0x00 (0000ms, 0481ms total)
T23E0 001:072 JLINK_SetBPEx(Addr = 0x20000000, Type = 0xFFFFFFF2)  returns 0x0000000E (0000ms, 0481ms total)
T23E0 001:072 JLINK_Go() (0002ms, 0483ms total)
T23E0 001:074 JLINK_IsHalted()  returns FALSE (0001ms, 0484ms total)
T23E0 001:121 JLINK_IsHalted() -- CPU_ReadMem(2 bytes @ 0x20000000)  returns TRUE (0005ms, 0488ms total)
T23E0 001:126 JLINK_ReadReg(R15)  returns 0x20000000 (0000ms, 0483ms total)
T23E0 001:126 JLINK_ClrBPEx(BPHandle = 0x0000000E)  returns 0x00 (0000ms, 0483ms total)
T23E0 001:126 JLINK_ReadReg(R0)  returns 0x00000000 (0000ms, 0483ms total)
T23E0 001:127 JLINK_WriteMem(0x20000164, 0x0400 Bytes, ...) -- Data:  40 1C 5B 1E 00 2B F7 D1 F0 BD 00 00 00 60 00 40 ... -- CPU_WriteMem(1024 bytes @ 0x20000164)  returns 0x400 (0011ms, 0494ms total)
T23E0 001:138 JLINK_WriteReg(R0, 0x08002800)  returns 0x00 (0000ms, 0494ms total)
T23E0 001:138 JLINK_WriteReg(R1, 0x00000400)  returns 0x00 (0000ms, 0494ms total)
T23E0 001:138 JLINK_WriteReg(R2, 0x20000164)  returns 0x00 (0000ms, 0494ms total)
T23E0 001:138 JLINK_WriteReg(R3, 0x00000000)  returns 0x00 (0000ms, 0494ms total)
T23E0 001:138 JLINK_WriteReg(R4, 0x00000000)  returns 0x00 (0000ms, 0494ms total)
T23E0 001:138 JLINK_WriteReg(R5, 0x00000000)  returns 0x00 (0000ms, 0494ms total)
T23E0 001:138 JLINK_WriteReg(R6, 0x00000000)  returns 0x00 (0000ms, 0494ms total)
T23E0 001:138 JLINK_WriteReg(R7, 0x00000000)  returns 0x00 (0000ms, 0494ms total)
T23E0 001:138 JLINK_WriteReg(R8, 0x00000000)  returns 0x00 (0000ms, 0494ms total)
T23E0 001:138 JLINK_WriteReg(R9, 0x20000160)  returns 0x00 (0000ms, 0494ms total)
T23E0 001:138 JLINK_WriteReg(R10, 0x00000000)  returns 0x00 (0000ms, 0494ms total)
T23E0 001:138 JLINK_WriteReg(R11, 0x00000000)  returns 0x00 (0000ms, 0494ms total)
T23E0 001:138 JLINK_WriteReg(R12, 0x00000000)  returns 0x00 (0000ms, 0494ms total)
T23E0 001:138 JLINK_WriteReg(R13, 0x20000800)  returns 0x00 (0000ms, 0494ms total)
T23E0 001:138 JLINK_WriteReg(R14, 0x20000001)  returns 0x00 (0000ms, 0494ms total)
T23E0 001:138 JLINK_WriteReg(R15, 0x200000F4)  returns 0x00 (0000ms, 0494ms total)
T23E0 001:138 JLINK_WriteReg(XPSR, 0x01000000)  returns 0x00 (0000ms, 0494ms total)
T23E0 001:138 JLINK_WriteReg(MSP, 0x20000800)  returns 0x00 (0000ms, 0494ms total)
T23E0 001:138 JLINK_WriteReg(PSP, 0x20000800)  returns 0x00 (0000ms, 0494ms total)
T23E0 001:138 JLINK_WriteReg(CFBP, 0x00000000)  returns 0x00 (0000ms, 0494ms total)
T23E0 001:138 JLINK_SetBPEx(Addr = 0x20000000, Type = 0xFFFFFFF2)  returns 0x0000000F (0000ms, 0494ms total)
T23E0 001:138 JLINK_Go() (0003ms, 0497ms total)
T23E0 001:141 JLINK_IsHalted()  returns FALSE (0001ms, 0498ms total)
T23E0 001:143 JLINK_IsHalted()  returns FALSE (0001ms, 0498ms total)
T23E0 001:145 JLINK_IsHalted()  returns FALSE (0001ms, 0498ms total)
T23E0 001:149 JLINK_IsHalted()  returns FALSE (0001ms, 0498ms total)
T23E0 001:151 JLINK_IsHalted()  returns FALSE (0001ms, 0498ms total)
T23E0 001:153 JLINK_IsHalted()  returns FALSE (0001ms, 0498ms total)
T23E0 001:155 JLINK_IsHalted()  returns FALSE (0001ms, 0498ms total)
T23E0 001:157 JLINK_IsHalted()  returns FALSE (0001ms, 0498ms total)
T23E0 001:159 JLINK_IsHalted()  returns FALSE (0001ms, 0498ms total)
T23E0 001:161 JLINK_IsHalted()  returns FALSE (0001ms, 0498ms total)
T23E0 001:163 JLINK_IsHalted()  returns FALSE (0001ms, 0498ms total)
T23E0 001:165 JLINK_IsHalted()  returns FALSE (0001ms, 0498ms total)
T23E0 001:167 JLINK_IsHalted()  returns FALSE (0001ms, 0498ms total)
T23E0 001:169 JLINK_IsHalted()  returns FALSE (0001ms, 0498ms total)
T23E0 001:171 JLINK_IsHalted()  returns FALSE (0001ms, 0498ms total)
T23E0 001:173 JLINK_IsHalted() -- CPU_ReadMem(2 bytes @ 0x20000000)  returns TRUE (0005ms, 0502ms total)
T23E0 001:178 JLINK_ReadReg(R15)  returns 0x20000000 (0000ms, 0497ms total)
T23E0 001:178 JLINK_ClrBPEx(BPHandle = 0x0000000F)  returns 0x00 (0000ms, 0497ms total)
T23E0 001:178 JLINK_ReadReg(R0)  returns 0x00000000 (0000ms, 0497ms total)
T23E0 001:179 JLINK_WriteMem(0x20000164, 0x0400 Bytes, ...) -- Data:  01 46 00 20 03 4A 50 68 20 F4 E0 60 08 43 50 60 ... -- CPU_WriteMem(1024 bytes @ 0x20000164)  returns 0x400 (0011ms, 0508ms total)
T23E0 001:190 JLINK_WriteReg(R0, 0x08002C00)  returns 0x00 (0000ms, 0508ms total)
T23E0 001:190 JLINK_WriteReg(R1, 0x00000400)  returns 0x00 (0000ms, 0508ms total)
T23E0 001:190 JLINK_WriteReg(R2, 0x20000164)  returns 0x00 (0000ms, 0508ms total)
T23E0 001:190 JLINK_WriteReg(R3, 0x00000000)  returns 0x00 (0000ms, 0508ms total)
T23E0 001:190 JLINK_WriteReg(R4, 0x00000000)  returns 0x00 (0000ms, 0508ms total)
T23E0 001:190 JLINK_WriteReg(R5, 0x00000000)  returns 0x00 (0000ms, 0508ms total)
T23E0 001:190 JLINK_WriteReg(R6, 0x00000000)  returns 0x00 (0000ms, 0508ms total)
T23E0 001:190 JLINK_WriteReg(R7, 0x00000000)  returns 0x00 (0000ms, 0508ms total)
T23E0 001:190 JLINK_WriteReg(R8, 0x00000000)  returns 0x00 (0000ms, 0508ms total)
T23E0 001:190 JLINK_WriteReg(R9, 0x20000160)  returns 0x00 (0000ms, 0508ms total)
T23E0 001:190 JLINK_WriteReg(R10, 0x00000000)  returns 0x00 (0000ms, 0508ms total)
T23E0 001:190 JLINK_WriteReg(R11, 0x00000000)  returns 0x00 (0000ms, 0508ms total)
T23E0 001:190 JLINK_WriteReg(R12, 0x00000000)  returns 0x00 (0000ms, 0508ms total)
T23E0 001:190 JLINK_WriteReg(R13, 0x20000800)  returns 0x00 (0000ms, 0508ms total)
T23E0 001:190 JLINK_WriteReg(R14, 0x20000001)  returns 0x00 (0000ms, 0508ms total)
T23E0 001:190 JLINK_WriteReg(R15, 0x200000F4)  returns 0x00 (0000ms, 0508ms total)
T23E0 001:190 JLINK_WriteReg(XPSR, 0x01000000)  returns 0x00 (0000ms, 0508ms total)
T23E0 001:190 JLINK_WriteReg(MSP, 0x20000800)  returns 0x00 (0000ms, 0508ms total)
T23E0 001:190 JLINK_WriteReg(PSP, 0x20000800)  returns 0x00 (0000ms, 0508ms total)
T23E0 001:190 JLINK_WriteReg(CFBP, 0x00000000)  returns 0x00 (0000ms, 0508ms total)
